<Qucs Dataset 0.0.19>
<indep y 1>
  +1.00000000000000000000e+00
</indep>
<indep frequency 200>
  +4.00000000000000000000e+09
  +4.01507537688442230225e+09
  +4.03015075376884412766e+09
  +4.04522613065326642990e+09
  +4.06030150753768825531e+09
  +4.07537688442211055756e+09
  +4.09045226130653285980e+09
  +4.10552763819095468521e+09
  +4.12060301507537698746e+09
  +4.13567839195979881287e+09
  +4.15075376884422111511e+09
  +4.16582914572864341736e+09
  +4.18090452261306524277e+09
  +4.19597989949748754501e+09
  +4.21105527638190937042e+09
  +4.22613065326633167267e+09
  +4.24120603015075397491e+09
  +4.25628140703517580032e+09
  +4.27135678391959810257e+09
  +4.28643216080401992798e+09
  +4.30150753768844223022e+09
  +4.31658291457286453247e+09
  +4.33165829145728683472e+09
  +4.34673366834170818329e+09
  +4.36180904522613048553e+09
  +4.37688442211055278778e+09
  +4.39195979899497509003e+09
  +4.40703517587939739227e+09
  +4.42211055276381874084e+09
  +4.43718592964824104309e+09
  +4.45226130653266334534e+09
  +4.46733668341708564758e+09
  +4.48241206030150794983e+09
  +4.49748743718592929840e+09
  +4.51256281407035160065e+09
  +4.52763819095477390289e+09
  +4.54271356783919620514e+09
  +4.55778894472361755371e+09
  +4.57286432160803985596e+09
  +4.58793969849246215820e+09
  +4.60301507537688446045e+09
  +4.61809045226130676270e+09
  +4.63316582914572906494e+09
  +4.64824120603015041351e+09
  +4.66331658291457271576e+09
  +4.67839195979899501801e+09
  +4.69346733668341732025e+09
  +4.70854271356783866882e+09
  +4.72361809045226097107e+09
  +4.73869346733668327332e+09
  +4.75376884422110557556e+09
  +4.76884422110552787781e+09
  +4.78391959798995018005e+09
  +4.79899497487437152863e+09
  +4.81407035175879383087e+09
  +4.82914572864321613312e+09
  +4.84422110552763843536e+09
  +4.85929648241205978394e+09
  +4.87437185929648208618e+09
  +4.88944723618090438843e+09
  +4.90452261306532669067e+09
  +4.91959798994974899292e+09
  +4.93467336683417129517e+09
  +4.94974874371859264374e+09
  +4.96482412060301494598e+09
  +4.97989949748743724823e+09
  +4.99497487437185955048e+09
  +5.01005025125628089905e+09
  +5.02512562814070320129e+09
  +5.04020100502512550354e+09
  +5.05527638190954780579e+09
  +5.07035175879397010803e+09
  +5.08542713567839241028e+09
  +5.10050251256281375885e+09
  +5.11557788944723606110e+09
  +5.13065326633165836334e+09
  +5.14572864321608066559e+09
  +5.16080402010050201416e+09
  +5.17587939698492431641e+09
  +5.19095477386934661865e+09
  +5.20603015075376892090e+09
  +5.22110552763819122314e+09
  +5.23618090452261352539e+09
  +5.25125628140703487396e+09
  +5.26633165829145717621e+09
  +5.28140703517587947845e+09
  +5.29648241206030178070e+09
  +5.31155778894472312927e+09
  +5.32663316582914543152e+09
  +5.34170854271356773376e+09
  +5.35678391959799003601e+09
  +5.37185929648241233826e+09
  +5.38693467336683464050e+09
  +5.40201005025125598907e+09
  +5.41708542713567829132e+09
  +5.43216080402010059357e+09
  +5.44723618090452289581e+09
  +5.46231155778894424438e+09
  +5.47738693467336654663e+09
  +5.49246231155778884888e+09
  +5.50753768844221115112e+09
  +5.52261306532663345337e+09
  +5.53768844221105575562e+09
  +5.55276381909547710419e+09
  +5.56783919597989940643e+09
  +5.58291457286432170868e+09
  +5.59798994974874401093e+09
  +5.61306532663316535950e+09
  +5.62814070351758766174e+09
  +5.64321608040200996399e+09
  +5.65829145728643226624e+09
  +5.67336683417085456848e+09
  +5.68844221105527687073e+09
  +5.70351758793969821930e+09
  +5.71859296482412052155e+09
  +5.73366834170854282379e+09
  +5.74874371859296512604e+09
  +5.76381909547738647461e+09
  +5.77889447236180877686e+09
  +5.79396984924623107910e+09
  +5.80904522613065338135e+09
  +5.82412060301507568359e+09
  +5.83919597989949798584e+09
  +5.85427135678391933441e+09
  +5.86934673366834163666e+09
  +5.88442211055276393890e+09
  +5.89949748743718624115e+09
  +5.91457286432160758972e+09
  +5.92964824120602989197e+09
  +5.94472361809045219421e+09
  +5.95979899497487449646e+09
  +5.97487437185929679871e+09
  +5.98994974874371910095e+09
  +6.00502512562814044952e+09
  +6.02010050251256275177e+09
  +6.03517587939698505402e+09
  +6.05025125628140735626e+09
  +6.06532663316582870483e+09
  +6.08040201005025100708e+09
  +6.09547738693467330933e+09
  +6.11055276381909561157e+09
  +6.12562814070351791382e+09
  +6.14070351758794021606e+09
  +6.15577889447236156464e+09
  +6.17085427135678386688e+09
  +6.18592964824120616913e+09
  +6.20100502512562751770e+09
  +6.21608040201004981995e+09
  +6.23115577889447212219e+09
  +6.24623115577889442444e+09
  +6.26130653266331672668e+09
  +6.27638190954773902893e+09
  +6.29145728643216133118e+09
  +6.30653266331658267975e+09
  +6.32160804020100498199e+09
  +6.33668341708542728424e+09
  +6.35175879396984863281e+09
  +6.36683417085427093506e+09
  +6.38190954773869323730e+09
  +6.39698492462311553955e+09
  +6.41206030150753784180e+09
  +6.42713567839196014404e+09
  +6.44221105527638244629e+09
  +6.45728643216080379486e+09
  +6.47236180904522609711e+09
  +6.48743718592964839935e+09
  +6.50251256281406974792e+09
  +6.51758793969849205017e+09
  +6.53266331658291435242e+09
  +6.54773869346733665466e+09
  +6.56281407035175895691e+09
  +6.57788944723618125916e+09
  +6.59296482412060356140e+09
  +6.60804020100502490997e+09
  +6.62311557788944721222e+09
  +6.63819095477386951447e+09
  +6.65326633165829086304e+09
  +6.66834170854271316528e+09
  +6.68341708542713546753e+09
  +6.69849246231155776978e+09
  +6.71356783919598007202e+09
  +6.72864321608040237427e+09
  +6.74371859296482467651e+09
  +6.75879396984924602509e+09
  +6.77386934673366832733e+09
  +6.78894472361809062958e+09
  +6.80402010050251197815e+09
  +6.81909547738693428040e+09
  +6.83417085427135658264e+09
  +6.84924623115577888489e+09
  +6.86432160804020118713e+09
  +6.87939698492462348938e+09
  +6.89447236180904579163e+09
  +6.90954773869346714020e+09
  +6.92462311557788944244e+09
  +6.93969849246231174469e+09
  +6.95477386934673309326e+09
  +6.96984924623115539551e+09
  +6.98492462311557769775e+09
  +7.00000000000000000000e+09
</indep>
<dep S11_dB frequency>
  -3.10118014073757706228e+01
  -3.07867433428879593293e+01
  -3.04779681397828916545e+01
  -2.99871389269577051095e+01
  -2.94300849259049144280e+01
  -2.89747616486237262734e+01
  -2.87463621777998312723e+01
  -2.86960198681976699220e+01
  -2.86893453216138567541e+01
  -2.86021719681441730643e+01
  -2.84151264809801418210e+01
  -2.82653496219903601627e+01
  -2.82892526986677417256e+01
  -2.84443937628114653648e+01
  -2.86779167707951074817e+01
  -2.88916178895169686314e+01
  -2.89782268695466882491e+01
  -2.90526015837110662687e+01
  -2.92596114825646580471e+01
  -2.96116772053210439708e+01
  -3.01453919795496751988e+01
  -3.07061287128607354191e+01
  -3.10882878094507653088e+01
  -3.13022543916947135756e+01
  -3.15195869747760610835e+01
  -3.19026665499778587787e+01
  -3.24920078928365612114e+01
  -3.32127398675958502849e+01
  -3.38444395939371602822e+01
  -3.42058492915654568378e+01
  -3.43863695738366743626e+01
  -3.44535811926344663902e+01
  -3.45034910647872123945e+01
  -3.45903893488998974703e+01
  -3.45484896101181249151e+01
  -3.42076682828393501268e+01
  -3.36389974570351952821e+01
  -3.27713915404193940617e+01
  -3.18073927193622161269e+01
  -3.09592976175310283793e+01
  -3.02731947479222860409e+01
  -2.97364469726588467324e+01
  -2.91274761790262317618e+01
  -2.83392983099170514549e+01
  -2.74114748631384017585e+01
  -2.65396965260057804414e+01
  -2.58093762299000317739e+01
  -2.52712149979467000094e+01
  -2.48736062125868642170e+01
  -2.44808381754486745763e+01
  -2.40034727759407253700e+01
  -2.33657268212455839773e+01
  -2.27418456156885326891e+01
  -2.21895840234864785145e+01
  -2.18058664424729187203e+01
  -2.15453556732906328364e+01
  -2.13866962830074989199e+01
  -2.11268124148607974178e+01
  -2.08140353907525081922e+01
  -2.04928576638062587278e+01
  -2.01902325804025686296e+01
  -1.99558676649213708743e+01
  -1.98294873991549849279e+01
  -1.97432907092444800412e+01
  -1.97241978316681638717e+01
  -1.97077549924903188128e+01
  -1.96263849134956451792e+01
  -1.95509133802251717782e+01
  -1.94754513196427510024e+01
  -1.94128065488151868578e+01
  -1.94890224817460158135e+01
  -1.96996156341491577280e+01
  -1.99452542647541157805e+01
  -2.02021924087346391730e+01
  -2.03537077680330824592e+01
  -2.03456293526112688141e+01
  -2.03645542120840943312e+01
  -2.04888727481666776953e+01
  -2.07575082865588100844e+01
  -2.11804813792654265114e+01
  -2.16178028389486627248e+01
  -2.19331951124281516741e+01
  -2.21482834603000142693e+01
  -2.23829190766794496881e+01
  -2.27690705890833733349e+01
  -2.32331270812664492098e+01
  -2.37525630465650365863e+01
  -2.42661036257877107403e+01
  -2.46241603789185390383e+01
  -2.49431468536703349059e+01
  -2.53971783080792299359e+01
  -2.58862529011500264176e+01
  -2.65630984036389392600e+01
  -2.72924957241331043178e+01
  -2.79818793110421495385e+01
  -2.86044703253101850748e+01
  -2.92185434794592779895e+01
  -2.98020917077858058519e+01
  -3.04151099311629451449e+01
  -3.10161608922433806868e+01
  -3.14237340965748401800e+01
  -3.18370164928426362394e+01
  -3.22476015532718847112e+01
  -3.26666994635301861649e+01
  -3.30065273854375504925e+01
  -3.30857083049932541030e+01
  -3.28748427714108260034e+01
  -3.24858662065603525093e+01
  -3.19578468802952251338e+01
  -3.13907455200524090344e+01
  -3.08601495394079421430e+01
  -3.04397462011402879511e+01
  -3.00430834241856246081e+01
  -2.95290273567967815893e+01
  -2.89692907127099665843e+01
  -2.83927318827484107544e+01
  -2.78000228717537076761e+01
  -2.72771065042980929150e+01
  -2.67621718529090877325e+01
  -2.62076531729918542624e+01
  -2.58239406044076176272e+01
  -2.55706898635779396045e+01
  -2.54122834902699246129e+01
  -2.53906190271877534315e+01
  -2.53453466712838348940e+01
  -2.52138695880258723037e+01
  -2.50675153872900793317e+01
  -2.49409686095833507125e+01
  -2.48165853355410170877e+01
  -2.48569939910645842929e+01
  -2.49262875861113215592e+01
  -2.50478812686563117040e+01
  -2.51741822112340827289e+01
  -2.52794189646585536480e+01
  -2.53759532813242358884e+01
  -2.54278781799386308649e+01
  -2.53797847374023177736e+01
  -2.51892095800197068911e+01
  -2.48403177545996776132e+01
  -2.43451528482104073703e+01
  -2.37358210948370960125e+01
  -2.30154576191291511122e+01
  -2.21887685099781784004e+01
  -2.12723524757390549667e+01
  -2.02354269888752149598e+01
  -1.91712776971965901396e+01
  -1.81503081539131869704e+01
  -1.72246457544257154382e+01
  -1.63900457567757200650e+01
  -1.56033303103501062026e+01
  -1.47788436729092342858e+01
  -1.39529037950609726693e+01
  -1.31390753783601521576e+01
  -1.24200114427299261877e+01
  -1.18204439018203935063e+01
  -1.12698405513225363705e+01
  -1.07261551322123338537e+01
  -1.01878315538676460505e+01
  -9.65639983051211991949e+00
  -9.15727340006646528536e+00
  -8.71962003618754089018e+00
  -8.34529419596681876214e+00
  -8.01309083810509115153e+00
  -7.69338735328636680322e+00
  -7.36641271949067011349e+00
  -7.05386971041370625102e+00
  -6.77294993524724464606e+00
  -6.53698112831533961753e+00
  -6.33693135331275225752e+00
  -6.14982645113351722443e+00
  -5.96369037683572056352e+00
  -5.77737492239425609597e+00
  -5.60578365534558820116e+00
  -5.48033587197690330584e+00
  -5.38437530549445764194e+00
  -5.30889808033026344702e+00
  -5.23778559684319500178e+00
  -5.15893924892222077716e+00
  -5.07807210668625774730e+00
  -5.01108989733124943200e+00
  -4.96311815650990695303e+00
  -4.93756030158797631913e+00
  -4.94225296380919143502e+00
  -4.96204221927020050487e+00
  -4.97387821422909759406e+00
  -4.99207405626256051079e+00
  -5.01005774467717479581e+00
  -5.04713997918685652877e+00
  -5.10552193993063241351e+00
  -5.18702442007192043860e+00
  -5.29396470876084990209e+00
  -5.41763403471916760168e+00
  -5.54477876631518640238e+00
  -5.68807173916168373751e+00
  -5.85000735881380773407e+00
  -6.03885063334854255146e+00
  -6.24675428671333676789e+00
  -6.46524812193498554791e+00
  -6.70188211045765669382e+00
  -6.96867788092751272444e+00
</dep>
<dep S22_dB frequency>
  -3.13566360869235118969e+01
  -3.10553217356645490099e+01
  -3.06911727863536683003e+01
  -3.01599640629721790219e+01
  -2.95257255717340356682e+01
  -2.89720303842611315304e+01
  -2.86308005079236309598e+01
  -2.84930514530092935388e+01
  -2.84499239454331700472e+01
  -2.83582986609888543228e+01
  -2.81733673307361875970e+01
  -2.80097360407546638328e+01
  -2.79716580739906959252e+01
  -2.80692670980159917349e+01
  -2.82940389968537608922e+01
  -2.85282297891957696834e+01
  -2.86706786603710774841e+01
  -2.87985679707660295890e+01
  -2.90110665446861588634e+01
  -2.93823453323939531856e+01
  -2.99713372404016951123e+01
  -3.06354821917542494703e+01
  -3.11813059064243276453e+01
  -3.15806702758468382797e+01
  -3.19517757468190168879e+01
  -3.24599071457920302919e+01
  -3.31692595912826462268e+01
  -3.40061157337913826382e+01
  -3.47539836579223120339e+01
  -3.51798573701915131551e+01
  -3.52756336819076210531e+01
  -3.50315593095803166079e+01
  -3.45872277424329936935e+01
  -3.40968503283151207484e+01
  -3.35628285570356013068e+01
  -3.29077522549021637133e+01
  -3.21759595183172919519e+01
  -3.11997761839082983215e+01
  -3.01667433388424477414e+01
  -2.92873789980026053570e+01
  -2.85960630145019223392e+01
  -2.81144531609692727159e+01
  -2.76253369195448925666e+01
  -2.69968826805138242264e+01
  -2.62382509628118754108e+01
  -2.55040833688580050875e+01
  -2.48849055856813272669e+01
  -2.44487347239252343911e+01
  -2.41484020042754501389e+01
  -2.38608698669215115729e+01
  -2.34938917031144036685e+01
  -2.29656342735311547187e+01
  -2.24365104437877072030e+01
  -2.19687122660397484708e+01
  -2.16600092124808440985e+01
  -2.14701547896098396961e+01
  -2.13774625838162322111e+01
  -2.11797181980541893154e+01
  -2.09225672620474902885e+01
  -2.06511131282577835577e+01
  -2.03932137862590110444e+01
  -2.01990110943083358563e+01
  -2.01074262398291558895e+01
  -2.00517420136026593980e+01
  -2.00610470036998975729e+01
  -2.00710151498574589368e+01
  -2.00147374993346325311e+01
  -1.99615217088463445805e+01
  -1.98990263135711984432e+01
  -1.98426333101560103955e+01
  -1.99240128007184864600e+01
  -2.01414444167731367941e+01
  -2.03981385378170045897e+01
  -2.06680365704929904780e+01
  -2.08257988208346809245e+01
  -2.08131801886473724039e+01
  -2.08212038223078366173e+01
  -2.09344870473505153541e+01
  -2.11968967417544327247e+01
  -2.16194436249928365612e+01
  -2.20572036120341827825e+01
  -2.23668573636350274114e+01
  -2.25694257426974509428e+01
  -2.27890215657277295236e+01
  -2.31639027200180258603e+01
  -2.36196051438671190681e+01
  -2.41322403181598268418e+01
  -2.46372189375278125567e+01
  -2.49813002605938478951e+01
  -2.52849019672594756969e+01
  -2.57258597877663461873e+01
  -2.62030602702510790891e+01
  -2.68714469025973592409e+01
  -2.75929974810237546023e+01
  -2.82731897323462533222e+01
  -2.88853446481729214668e+01
  -2.94879897540089466190e+01
  -3.00583942545988449524e+01
  -3.06567014303720384305e+01
  -3.12386287646974416532e+01
  -3.16207593706518217402e+01
  -3.20028682579095971050e+01
  -3.23756006902481772158e+01
  -3.27531321717238483870e+01
  -3.30518659646057670898e+01
  -3.30963964488776127837e+01
  -3.28602370366786544764e+01
  -3.24528512307920991020e+01
  -3.19167070762694535802e+01
  -3.13503389029062375926e+01
  -3.08262988913503264143e+01
  -3.04129484578026385577e+01
  -3.00259198336309935939e+01
  -2.95256897144258942944e+01
  -2.89809882982363546944e+01
  -2.84198784020276526974e+01
  -2.78427832356507281020e+01
  -2.73335289302895212415e+01
  -2.68315932210578189654e+01
  -2.62892185786690610882e+01
  -2.59142892713223247370e+01
  -2.56672214758601597850e+01
  -2.55130305258428933257e+01
  -2.54940438747682378562e+01
  -2.54510174425867958803e+01
  -2.53217998713829040014e+01
  -2.51763212779634280025e+01
  -2.50480691041442256051e+01
  -2.49205350515976000736e+01
  -2.49554786656409959278e+01
  -2.50174345035550231842e+01
  -2.51297163050967498066e+01
  -2.52451702351827194093e+01
  -2.53382560022721108339e+01
  -2.54219930017914705900e+01
  -2.54624114808979165048e+01
  -2.54067095644667340082e+01
  -2.52142981227148119672e+01
  -2.48704707218353675557e+01
  -2.43874294125668598099e+01
  -2.37952404786757512056e+01
  -2.30940300920271397445e+01
  -2.22872327388587621044e+01
  -2.13895260327185141591e+01
  -2.03691065596160711948e+01
  -1.93186837522953815949e+01
  -1.83091011995951973290e+01
  -1.73918450388242149529e+01
  -1.65630302022338042889e+01
  -1.57805888969968002300e+01
  -1.49595547511785973427e+01
  -1.41359467464279262572e+01
  -1.33239928742703828135e+01
  -1.26062728736487468240e+01
  -1.20075381874571931462e+01
  -1.14571424347929156085e+01
  -1.09130241284067945884e+01
  -1.03740667477064576474e+01
  -9.84217732187691396462e+00
  -9.34263448661558015829e+00
  -8.90454520986165931618e+00
  -8.52952754052502015725e+00
  -8.19640417983485392028e+00
  -7.87562363608361692968e+00
  -7.54754051482431975728e+00
  -7.23393461309163132711e+00
  -6.95200760458822308863e+00
  -6.71493772525353715963e+00
  -6.51370359987762626020e+00
  -6.32543118767573719907e+00
  -6.13811531397032261737e+00
  -5.95069636703095028452e+00
  -5.77800321884205381195e+00
  -5.65123881910286396391e+00
  -5.55389557457269589236e+00
  -5.47697841652305150717e+00
  -5.40449090529601416932e+00
  -5.32435132028750945921e+00
  -5.24230850492793720719e+00
  -5.17418546073127316731e+00
  -5.12495622636693237695e+00
  -5.09806105663742492595e+00
  -5.10124893327141570865e+00
  -5.11947012040597471128e+00
  -5.12987385070886681149e+00
  -5.14670208026726161421e+00
  -5.16341146198319389526e+00
  -5.19908948494455369627e+00
  -5.25598398988564774470e+00
  -5.33585108971304844516e+00
  -5.44099258255230289194e+00
  -5.56277047295815485484e+00
  -5.68810307246740265441e+00
  -5.82953591164002471459e+00
  -5.98949614631365978568e+00
  -6.17631400225638582668e+00
  -6.38206159003448991740e+00
  -6.59852845186593572890e+00
  -6.83312127121660317641e+00
  -7.09754482811567122269e+00
</dep>
<dep S21_dB_IL_2 frequency>
  -4.77151885487042193290e+00
  -4.77121779302980186799e+00
  -4.77807720845329875203e+00
  -4.78116013102820502922e+00
  -4.78580563866278652085e+00
  -4.78608293208624857584e+00
  -4.79614608159663102782e+00
  -4.80140968156418423973e+00
  -4.79917304752922913025e+00
  -4.80307243030492614366e+00
  -4.80427933410006602344e+00
  -4.80873439668845925610e+00
  -4.80491557324887530456e+00
  -4.81096471694667737751e+00
  -4.81952118446376687189e+00
  -4.81625999317936592803e+00
  -4.82283779845729565494e+00
  -4.82157125033280475890e+00
  -4.82797972039824596635e+00
  -4.83506665706392535498e+00
  -4.83992678992613889477e+00
  -4.84391487273661702773e+00
  -4.84529655268541148416e+00
  -4.85330590691262031555e+00
  -4.85504499261589117509e+00
  -4.85261553805688716778e+00
  -4.86346423582946485453e+00
  -4.87358483926283714283e+00
  -4.87664781166236327437e+00
  -4.87602186204447018980e+00
  -4.87113257037250324544e+00
  -4.87969332212724093978e+00
  -4.88131973641282268517e+00
  -4.88820298065429348355e+00
  -4.89298484442355441359e+00
  -4.89566939605175655004e+00
  -4.89668724290512091812e+00
  -4.89582821074083884838e+00
  -4.90721398152951060467e+00
  -4.91275695811967594295e+00
  -4.91315328557603248072e+00
  -4.92594060774740416520e+00
  -4.92737245065579188008e+00
  -4.92282182192786432751e+00
  -4.92436654092287806606e+00
  -4.92518400610992745925e+00
  -4.93005718638953194244e+00
  -4.94099410638880431890e+00
  -4.93945217859555274487e+00
  -4.93980650239073959540e+00
  -4.94086344317942938176e+00
  -4.94765961439472334860e+00
  -4.95073419032461359279e+00
  -4.96112596181803855444e+00
  -4.95962037647574316424e+00
  -4.95918564694010211014e+00
  -4.96373059521337367528e+00
  -4.96120000203777955505e+00
  -4.95905023453007398615e+00
  -4.95910980994520045328e+00
